T5468 91562:780.879   SEGGER J-Link V6.60d Log File
T5468 91562:780.938   DLL Compiled: Jan  9 2020 17:43:01
T5468 91562:780.944   Logging started @ 2020-03-10 15:06
T5468 91562:780.954 JLINK_SetWarnOutHandler(...)
T5468 91562:780.960 - 0.008ms
T5468 91562:780.967 JLINK_OpenEx(...)
T5468 91562:782.022   Firmware: J-Link ARM V8 compiled Nov 28 2014 13:44:46
T5468 91562:784.598   Hardware: V8.00
T5468 91562:784.620   S/N: 12345678
T5468 91562:784.628   OEM: SEGGER
T5468 91562:784.635   Feature(s): RDI,FlashDL,FlashBP,JFlash,GDBFull
T5468 91562:786.004   TELNET listener socket opened on port 19021
T5468 91562:786.567   WEBSRV Starting webserver
T5468 91562:786.700   WEBSRV Webserver running on local port 19080
T5468 91562:786.714 - 5.750ms returns "O.K."
T5468 91562:786.734 JLINK_GetEmuCaps()
T5468 91562:786.742 - 0.011ms returns 0xB9FF7BBF
T5468 91562:786.754 JLINK_TIF_GetAvailable(...)
T5468 91562:786.940 - 0.193ms
T5468 91562:786.957 JLINK_SetErrorOutHandler(...)
T5468 91562:786.962 - 0.008ms
T5468 91562:787.313 JLINK_ExecCommand("ProjectFile = "C:\Users\LiDonghui\Desktop\Snake\ALIENTEK MINISTM32 实验11 TFT LCD液晶显示实验\USER\JLinkSettings.ini"", ...). 
T5468 91562:790.326 - 3.026ms returns 0x00
T5468 91562:790.368 JLINK_ExecCommand("Device = STM32F103RC", ...). 
T5468 91562:790.775   Device "STM32F103RC" selected.
T5468 91562:792.858 - 2.499ms returns 0x00
T5468 91562:792.887 JLINK_ExecCommand("DisableConnectionTimeout", ...). 
T5468 91562:792.901 - 0.008ms returns 0x01
T5468 91562:792.915 JLINK_GetHardwareVersion()
T5468 91562:792.923 - 0.011ms returns 0x13880
T5468 91562:792.932 JLINK_GetDLLVersion()  returns 66004
T5468 91562:792.941 JLINK_GetFirmwareString(...)
T5468 91562:792.946 - 0.008ms
T5468 91562:792.975 JLINK_GetDLLVersion()  returns 66004
T5468 91562:792.984 JLINK_GetCompileDateTime()
T5468 91562:792.989 - 0.007ms
T5468 91562:793.001 JLINK_GetFirmwareString(...)
T5468 91562:793.007 - 0.008ms
T5468 91562:793.016 JLINK_GetHardwareVersion()
T5468 91562:793.021 - 0.007ms returns 0x13880
T5468 91562:793.042 JLINK_TIF_Select(JLINKARM_TIF_SWD)
T5468 91562:793.691 - 0.661ms returns 0x00
T5468 91562:793.715 JLINK_SetSpeed(5000)
T5468 91562:793.777 - 0.075ms
T5468 91562:793.802 JLINK_GetId()
T5468 91562:794.866   Found SW-DP with ID 0x1BA01477
T5468 91562:805.564   Found SW-DP with ID 0x1BA01477
T5468 91562:807.758   Scanning AP map to find all available APs
T5468 91562:809.909   AP[1]: Stopped AP scan as end of AP map has been reached
T5468 91562:809.924   AP[0]: AHB-AP (IDR: 0x14770011)
T5468 91562:809.935   Iterating through AP map to find AHB-AP to use
T5468 91562:813.939   AP[0]: Core found
T5468 91562:813.955   AP[0]: AHB-AP ROM base: 0xE00FF000
T5468 91562:815.805   CPUID register: 0x411FC231. Implementer code: 0x41 (ARM)
T5468 91562:815.825   Found Cortex-M3 r1p1, Little endian.
T5468 91562:916.687    -- Max. mem block: 0x00002408
T5468 91562:916.718    -- CPU_ReadMem(4 bytes @ 0xE000EDF0)
T5468 91562:917.827    -- CPU_WriteMem(4 bytes @ 0xE000EDF0)
T5468 91562:918.816    -- CPU_ReadMem(4 bytes @ 0xE0002000)
T5468 91562:919.846   FPUnit: 6 code (BP) slots and 2 literal slots
T5468 91562:919.877    -- CPU_ReadMem(4 bytes @ 0xE000EDFC)
T5468 91562:920.816    -- CPU_WriteMem(4 bytes @ 0xE000EDFC)
T5468 91562:921.815    -- CPU_ReadMem(4 bytes @ 0xE0001000)
T5468 91562:922.811    -- CPU_WriteMem(4 bytes @ 0xE0001000)
T5468 91562:923.454    -- CPU_ReadMem(4 bytes @ 0xE000ED88)
T5468 91562:923.904    -- CPU_WriteMem(4 bytes @ 0xE000ED88)
T5468 91562:924.494    -- CPU_ReadMem(4 bytes @ 0xE000ED88)
T5468 91562:924.945    -- CPU_WriteMem(4 bytes @ 0xE000ED88)
T5468 91562:925.527   CoreSight components:
T5468 91562:925.550   ROMTbl[0] @ E00FF000
T5468 91562:925.561    -- CPU_ReadMem(16 bytes @ 0xE00FF000)
T5468 91562:926.226    -- CPU_ReadMem(16 bytes @ 0xE000EFF0)
T5468 91562:926.879    -- CPU_ReadMem(16 bytes @ 0xE000EFE0)
T5468 91562:927.649   ROMTbl[0][0]: E000E000, CID: B105E00D, PID: 001BB000 SCS
T5468 91562:927.680    -- CPU_ReadMem(16 bytes @ 0xE0001FF0)
T5468 91562:928.556    -- CPU_ReadMem(16 bytes @ 0xE0001FE0)
T5468 91562:929.225   ROMTbl[0][1]: E0001000, CID: B105E00D, PID: 001BB002 DWT
T5468 91562:929.246    -- CPU_ReadMem(16 bytes @ 0xE0002FF0)
T5468 91562:929.973    -- CPU_ReadMem(16 bytes @ 0xE0002FE0)
T5468 91562:930.448   ROMTbl[0][2]: E0002000, CID: B105E00D, PID: 000BB003 FPB
T5468 91562:930.481    -- CPU_ReadMem(16 bytes @ 0xE0000FF0)
T5468 91562:931.131    -- CPU_ReadMem(16 bytes @ 0xE0000FE0)
T5468 91562:931.877   ROMTbl[0][3]: E0000000, CID: B105E00D, PID: 001BB001 ITM
T5468 91562:931.899    -- CPU_ReadMem(16 bytes @ 0xE00FF010)
T5468 91562:932.604    -- CPU_ReadMem(16 bytes @ 0xE0040FF0)
T5468 91562:933.348    -- CPU_ReadMem(16 bytes @ 0xE0040FE0)
T5468 91562:933.975   ROMTbl[0][4]: E0040000, CID: B105900D, PID: 001BB923 TPIU-Lite
T5468 91562:933.996    -- CPU_ReadMem(16 bytes @ 0xE0041FF0)
T5468 91562:934.715    -- CPU_ReadMem(16 bytes @ 0xE0041FE0)
T5468 91562:935.429   ROMTbl[0][5]: E0041000, CID: B105900D, PID: 101BB924 ETM-M3
T5468 91562:936.020 - 142.228ms   returns 0x1BA01477
T5468 91562:936.042 JLINK_GetDLLVersion()  returns 66004
T5468 91562:936.086 JLINK_CORE_GetFound()
T5468 91562:936.095 - 0.012ms returns 0x30000FF
T5468 91562:936.104 JLINK_GetDebugInfo(0x100 = JLINKARM_ROM_TABLE_ADDR_INDEX)
T5468 91562:936.110   Value=0xE00FF000
T5468 91562:936.118 - 0.016ms returns 0x00
T5468 91562:936.140 JLINK_GetDebugInfo(0x100 = JLINKARM_ROM_TABLE_ADDR_INDEX)
T5468 91562:936.146   Value=0xE00FF000
T5468 91562:936.154 - 0.016ms returns 0x00
T5468 91562:936.160 JLINK_GetDebugInfo(0x101 = JLINKARM_DEBUG_INFO_ETM_ADDR_INDEX)
T5468 91562:936.165   Value=0xE0041000
T5468 91562:936.172 - 0.015ms returns 0x00
T5468 91562:936.180   JLINK_ReadMemEx(0xE0041FD0, 0x0020 Bytes, ..., Flags = 0x02000004)
T5468 91562:936.197    -- CPU_ReadMem(32 bytes @ 0xE0041FD0)
T5468 91562:937.009   Data:  04 00 00 00 00 00 00 00 00 00 00 00 00 00 00 00 ...
T5468 91562:937.032 - 0.855ms returns 0x20
T5468 91562:937.043 JLINK_GetDebugInfo(0x102 = JLINKARM_DEBUG_INFO_MTB_ADDR_INDEX)
T5468 91562:937.050   Value=0x00000000
T5468 91562:937.057 - 0.016ms returns 0x00
T5468 91562:937.063 JLINK_GetDebugInfo(0x103 = JLINKARM_DEBUG_INFO_TPIU_ADDR_INDEX)
T5468 91562:937.069   Value=0xE0040000
T5468 91562:937.076 - 0.015ms returns 0x00
T5468 91562:937.082 JLINK_GetDebugInfo(0x104 = JLINKARM_DEBUG_INFO_ITM_ADDR_INDEX)
T5468 91562:937.087   Value=0xE0000000
T5468 91562:937.095 - 0.015ms returns 0x00
T5468 91562:937.101 JLINK_GetDebugInfo(0x105 = JLINKARM_DEBUG_INFO_DWT_ADDR_INDEX)
T5468 91562:937.106   Value=0xE0001000
T5468 91562:937.113 - 0.015ms returns 0x00
T5468 91562:937.119 JLINK_GetDebugInfo(0x106 = JLINKARM_DEBUG_INFO_FPB_ADDR_INDEX)
T5468 91562:937.125   Value=0xE0002000
T5468 91562:937.132 - 0.015ms returns 0x00
T5468 91562:937.138 JLINK_GetDebugInfo(0x107 = JLINKARM_DEBUG_INFO_NVIC_ADDR_INDEX)
T5468 91562:937.143   Value=0xE000E000
T5468 91562:937.150 - 0.015ms returns 0x00
T5468 91562:937.156 JLINK_GetDebugInfo(0x10C = JLINKARM_DEBUG_INFO_DBG_ADDR_INDEX)
T5468 91562:937.161   Value=0xE000EDF0
T5468 91562:937.169 - 0.015ms returns 0x00
T5468 91562:937.175 JLINK_GetDebugInfo(0x01 = Unknown)
T5468 91562:937.180   Value=0x00000000
T5468 91562:937.188 - 0.015ms returns 0x00
T5468 91562:937.198   JLINK_ReadMemU32(0xE000ED00, 0x0001 Items, ...)
T5468 91562:937.212    -- CPU_ReadMem(4 bytes @ 0xE000ED00)
T5468 91562:937.768   Data:  31 C2 1F 41
T5468 91562:937.783    - CPUID
T5468 91562:937.791 - 0.595ms returns 1
T5468 91562:937.800 JLINK_GetDebugInfo(0x10F = JLINKARM_DEBUG_INFO_HAS_CORTEX_M_SECURITY_EXT_INDEX)
T5468 91562:937.807   Value=0x00000000
T5468 91562:937.815 - 0.018ms returns 0x00
T5468 91562:937.826 JLINK_SetResetType(JLINKARM_CM3_RESET_TYPE_NORMAL)
T5468 91562:937.832 - 0.008ms returns JLINKARM_CM3_RESET_TYPE_NORMAL
T5468 91562:937.839 JLINK_Reset()
T5468 91562:937.851   CPU is running
T5468 91562:937.861    -- CPU_WriteMem(4 bytes @ 0xE000EDF0)
T5468 91562:938.473   CPU is running
T5468 91562:938.487    -- CPU_WriteMem(4 bytes @ 0xE000EDFC)
T5468 91562:939.018   Reset: Halt core after reset via DEMCR.VC_CORERESET.
T5468 91562:939.649   Reset: Reset device via AIRCR.SYSRESETREQ.
T5468 91562:939.663   CPU is running
T5468 91562:939.678    -- CPU_WriteMem(4 bytes @ 0xE000ED0C)
T5468 91562:992.594    -- CPU_ReadMem(4 bytes @ 0xE000EDF0)
T5468 91562:993.554    -- CPU_ReadMem(4 bytes @ 0xE000EDF0)
T5468 91562:994.520   CPU is running
T5468 91562:994.574    -- CPU_WriteMem(4 bytes @ 0xE000EDF0)
T5468 91562:995.544   CPU is running
T5468 91562:995.581    -- CPU_WriteMem(4 bytes @ 0xE000EDFC)
T5468 91563:001.952    -- CPU_ReadMem(4 bytes @ 0xE000EDF0)
T5468 91563:005.029    -- CPU_WriteMem(4 bytes @ 0xE0002000)
T5468 91563:005.969    -- CPU_ReadMem(4 bytes @ 0xE000EDFC)
T5468 91563:006.899    -- CPU_ReadMem(4 bytes @ 0xE0001000)
T5468 91563:007.833 - 70.017ms
T5468 91563:007.885 JLINK_ReadReg(R15 (PC))
T5468 91563:007.896 - 0.014ms returns 0x080077B0
T5468 91563:007.903 JLINK_ReadReg(XPSR)
T5468 91563:007.910 - 0.010ms returns 0x01000000
T5468 91563:007.949 JLINK_Halt()
T5468 91563:007.957 - 0.012ms returns 0x00
T5468 91563:007.967   JLINK_ReadMemU32(0xE000EDF0, 0x0001 Items, ...)
T5468 91563:007.981    -- CPU_ReadMem(4 bytes @ 0xE000EDF0)
T5468 91563:008.882   Data:  03 00 03 00
T5468 91563:008.912    - DHCSR
T5468 91563:008.920 - 0.957ms returns 1
T5468 91563:008.936   JLINK_WriteU32(0xE000EDF0, 0xA05F0003)
T5468 91563:008.945    - DHCSR
T5468 91563:008.962    -- CPU_WriteMem(4 bytes @ 0xE000EDF0)
T5468 91563:009.867 - 0.952ms returns 0
T5468 91563:009.899   JLINK_WriteU32(0xE000EDFC, 0x01000000)
T5468 91563:009.908    - DEMCR
T5468 91563:009.925    -- CPU_WriteMem(4 bytes @ 0xE000EDFC)
T5468 91563:010.840 - 0.966ms returns 0
T5468 91563:010.907 JLINK_GetHWStatus(...)
T5468 91563:011.181 - 0.287ms returns 0x00
T5468 91563:011.229 JLINK_GetNumBPUnits(Type = 0xFFFFFF00)
T5468 91563:011.239 - 0.012ms returns 0x06
T5468 91563:011.245 JLINK_GetNumBPUnits(Type = 0xF0)
T5468 91563:011.251 - 0.008ms returns 0x2000
T5468 91563:011.257 JLINK_GetNumWPUnits()
T5468 91563:011.263 - 0.007ms returns 0x04
T5468 91563:011.278 JLINK_GetSpeed()
T5468 91563:011.284 - 0.008ms returns 0xFA0
T5468 91563:011.297   JLINK_ReadMemU32(0xE000E004, 0x0001 Items, ...)
T5468 91563:011.313    -- CPU_ReadMem(4 bytes @ 0xE000E004)
T5468 91563:012.300   Data:  01 00 00 00
T5468 91563:012.328 - 1.034ms returns 1
T5468 91563:012.340   JLINK_ReadMemU32(0xE000E004, 0x0001 Items, ...)
T5468 91563:012.355    -- CPU_ReadMem(4 bytes @ 0xE000E004)
T5468 91563:013.293   Data:  01 00 00 00
T5468 91563:013.320 - 0.984ms returns 1
T5468 91563:013.336 JLINK_WriteMemEx(0xE0001000, 0x001C Bytes, ..., Flags = 0x02000004)
T5468 91563:013.343   Data:  01 00 00 00 00 00 00 00 00 00 00 00 00 00 00 00 ...
T5468 91563:013.774    -- CPU_WriteMem(28 bytes @ 0xE0001000)
T5468 91563:014.843 - 1.531ms returns 0x1C
T5468 91563:014.883 JLINK_ReadReg(R15 (PC))
T5468 91563:014.897 - 0.018ms returns 0x080077B0
T5468 91563:014.907 JLINK_ReadReg(XPSR)
T5468 91563:014.917 - 0.013ms returns 0x01000000
T5468 91563:017.151   JLINK_ReadMemEx(0xE0001004, 0x0004 Bytes, ..., Flags = 0x02000000)
T5468 91563:017.181   Data:  00 00 00 00
T5468 91563:017.190    - DWT_CYCCNT
T5468 91563:017.197 - 0.050ms returns 0x04
T5468 91563:086.093 JLINK_SetResetType(JLINKARM_CM3_RESET_TYPE_NORMAL)
T5468 91563:086.117 - 0.027ms returns JLINKARM_CM3_RESET_TYPE_NORMAL
T5468 91563:086.124 JLINK_Reset()
T5468 91563:086.139    -- CPU_WriteMem(4 bytes @ 0xE000EDF0)
T5468 91563:086.547    -- CPU_WriteMem(4 bytes @ 0xE000EDFC)
T5468 91563:086.976   Reset: Halt core after reset via DEMCR.VC_CORERESET.
T5468 91563:087.631   Reset: Reset device via AIRCR.SYSRESETREQ.
T5468 91563:087.646    -- CPU_WriteMem(4 bytes @ 0xE000ED0C)
T5468 91563:141.245    -- CPU_ReadMem(4 bytes @ 0xE000EDF0)
T5468 91563:142.212    -- CPU_ReadMem(4 bytes @ 0xE000EDF0)
T5468 91563:143.192    -- CPU_WriteMem(4 bytes @ 0xE000EDF0)
T5468 91563:144.188    -- CPU_WriteMem(4 bytes @ 0xE000EDFC)
T5468 91563:150.560    -- CPU_ReadMem(4 bytes @ 0xE000EDF0)
T5468 91563:154.362    -- CPU_WriteMem(4 bytes @ 0xE0002000)
T5468 91563:155.284    -- CPU_ReadMem(4 bytes @ 0xE000EDFC)
T5468 91563:156.208    -- CPU_ReadMem(4 bytes @ 0xE0001000)
T5468 91563:157.166 - 71.069ms
T5468 91563:157.249 JLINK_ReadReg(R15 (PC))
T5468 91563:157.262 - 0.016ms returns 0x080077B0
T5468 91563:157.270 JLINK_ReadReg(XPSR)
T5468 91563:157.276 - 0.009ms returns 0x01000000
T5468 91563:158.000   JLINK_ReadMemEx(0x080077B0, 0x003C Bytes, ..., Flags = 0x02000000)
T5468 91563:158.027    -- CPU_ReadMem(128 bytes @ 0x08007780)
T5468 91563:159.555    -- Updating C cache (128 bytes @ 0x08007780)
T5468 91563:159.582    -- Read from C cache (60 bytes @ 0x080077B0)
T5468 91563:159.593   Data:  09 48 80 47 09 48 00 47 FE E7 FE E7 FE E7 FE E7 ...
T5468 91563:159.600 - 1.604ms returns 0x3C
T5468 91563:159.612   JLINK_ReadMemEx(0x080077B0, 0x0002 Bytes, ..., Flags = 0x02000000)
T5468 91563:159.622    -- Read from C cache (2 bytes @ 0x080077B0)
T5468 91563:159.630   Data:  09 48
T5468 91563:159.639 - 0.031ms returns 0x02
T5468 91563:159.702   JLINK_ReadMemEx(0x080077B2, 0x0002 Bytes, ..., Flags = 0x02000000)
T5468 91563:159.716    -- Read from C cache (2 bytes @ 0x080077B2)
T5468 91563:159.723   Data:  80 47
T5468 91563:159.731 - 0.031ms returns 0x02
T5468 91563:159.753   JLINK_ReadMemEx(0x080077B2, 0x0002 Bytes, ..., Flags = 0x02000000)
T5468 91563:159.762    -- Read from C cache (2 bytes @ 0x080077B2)
T5468 91563:159.770   Data:  80 47
T5468 91563:159.777 - 0.027ms returns 0x02
T5468 91563:159.784   JLINK_ReadMemEx(0x080077B4, 0x003C Bytes, ..., Flags = 0x02000000)
T5468 91563:159.792    -- Read from C cache (60 bytes @ 0x080077B4)
T5468 91563:159.800   Data:  09 48 00 47 FE E7 FE E7 FE E7 FE E7 FE E7 FE E7 ...
T5468 91563:159.807 - 0.026ms returns 0x3C
T5468 91563:159.814   JLINK_ReadMemEx(0x080077B4, 0x0002 Bytes, ..., Flags = 0x02000000)
T5468 91563:159.821    -- Read from C cache (2 bytes @ 0x080077B4)
T5468 91563:159.829   Data:  09 48
T5468 91563:159.836 - 0.025ms returns 0x02
T5468 91564:639.925 JLINK_ReadReg(R0)
T5468 91564:640.385 - 0.470ms returns 0x00000001
T5468 91564:640.401 JLINK_ReadReg(R1)
T5468 91564:640.408 - 0.009ms returns 0x00000001
T5468 91564:640.414 JLINK_ReadReg(R2)
T5468 91564:640.420 - 0.008ms returns 0xE000E000
T5468 91564:640.426 JLINK_ReadReg(R3)
T5468 91564:640.431 - 0.007ms returns 0xE000E000
T5468 91564:640.437 JLINK_ReadReg(R4)
T5468 91564:640.442 - 0.008ms returns 0x00000000
T5468 91564:640.448 JLINK_ReadReg(R5)
T5468 91564:640.453 - 0.007ms returns 0x00000000
T5468 91564:640.459 JLINK_ReadReg(R6)
T5468 91564:640.465 - 0.007ms returns 0x00000090
T5468 91564:640.471 JLINK_ReadReg(R7)
T5468 91564:640.476 - 0.008ms returns 0x00000000
T5468 91564:640.482 JLINK_ReadReg(R8)
T5468 91564:640.488 - 0.008ms returns 0x00000090
T5468 91564:640.494 JLINK_ReadReg(R9)
T5468 91564:640.499 - 0.007ms returns 0x20000160
T5468 91564:640.505 JLINK_ReadReg(R10)
T5468 91564:640.510 - 0.007ms returns 0x0800C8E0
T5468 91564:640.516 JLINK_ReadReg(R11)
T5468 91564:640.521 - 0.007ms returns 0x00000000
T5468 91564:640.527 JLINK_ReadReg(R12)
T5468 91564:640.533 - 0.007ms returns 0xE84BDF00
T5468 91564:640.539 JLINK_ReadReg(R13 (SP))
T5468 91564:640.545 - 0.008ms returns 0x200007E8
T5468 91564:640.551 JLINK_ReadReg(R14)
T5468 91564:640.556 - 0.007ms returns 0xFFFFFFFF
T5468 91564:640.562 JLINK_ReadReg(R15 (PC))
T5468 91564:640.567 - 0.008ms returns 0x080077B0
T5468 91564:640.574 JLINK_ReadReg(XPSR)
T5468 91564:640.579 - 0.008ms returns 0x01000000
T5468 91564:640.585 JLINK_ReadReg(MSP)
T5468 91564:640.590 - 0.007ms returns 0x200007E8
T5468 91564:640.596 JLINK_ReadReg(PSP)
T5468 91564:640.601 - 0.007ms returns 0x20001000
T5468 91564:640.607 JLINK_ReadReg(CFBP)
T5468 91564:640.613 - 0.007ms returns 0x00000000
T5468 91564:646.490   JLINK_ReadMemEx(0x20000068, 0x0004 Bytes, ..., Flags = 0x02000000)
T5468 91564:646.529    -- CPU_ReadMem(64 bytes @ 0x20000040)
T5468 91564:647.554    -- Updating C cache (64 bytes @ 0x20000040)
T5468 91564:647.644    -- Read from C cache (4 bytes @ 0x20000068)
T5468 91564:647.656   Data:  00 00 00 00
T5468 91564:647.667 - 1.181ms returns 0x04
T5468 91564:647.889   JLINK_ReadMemEx(0x20000068, 0x0004 Bytes, ..., Flags = 0x02000000)
T5468 91564:647.912    -- Read from C cache (4 bytes @ 0x20000068)
T5468 91564:647.922   Data:  00 00 00 00
T5468 91564:647.931 - 0.047ms returns 0x04
T5468 91564:647.969   JLINK_ReadMemEx(0x20000068, 0x0004 Bytes, ..., Flags = 0x02000000)
T5468 91564:647.986    -- Read from C cache (4 bytes @ 0x20000068)
T5468 91564:647.995   Data:  00 00 00 00
T5468 91564:648.003 - 0.038ms returns 0x04
T00CC 91564:685.548   JLINK_ReadMemEx(0x080077B0, 0x0002 Bytes, ..., Flags = 0x02000000)
T00CC 91564:685.597    -- Read from C cache (2 bytes @ 0x080077B0)
T00CC 91564:685.607   Data:  09 48
T00CC 91564:685.616 - 0.072ms returns 0x02
T00CC 91564:685.639   JLINK_SetBPEx(Addr = 0x08000234, Type = 0xFFFFFFF2)
T00CC 91564:685.742 - 0.106ms returns 0x00000001
T00CC 91564:685.754 JLINK_Go()
T00CC 91564:685.788    -- CPU_WriteMem(4 bytes @ 0xE0002000)
T00CC 91564:686.276    -- CPU_ReadMem(4 bytes @ 0xE0001000)
T00CC 91564:686.662    -- CPU_WriteMem(4 bytes @ 0xE0002008)
T00CC 91564:686.683    -- CPU_WriteMem(4 bytes @ 0xE000200C)
T00CC 91564:686.698    -- CPU_WriteMem(4 bytes @ 0xE0002010)
T00CC 91564:686.713    -- CPU_WriteMem(4 bytes @ 0xE0002014)
T00CC 91564:686.728    -- CPU_WriteMem(4 bytes @ 0xE0002018)
T00CC 91564:686.739    -- CPU_WriteMem(4 bytes @ 0xE000201C)
T00CC 91564:688.577    -- CPU_WriteMem(4 bytes @ 0xE0001004)
T00CC 91564:689.300 - 3.560ms
T00CC 91564:789.764 JLINK_IsHalted()
T00CC 91564:792.032 - 2.284ms returns TRUE
T00CC 91564:792.063 JLINK_Halt()
T00CC 91564:792.072 - 0.013ms returns 0x00
T00CC 91564:792.082 JLINK_IsHalted()
T00CC 91564:792.090 - 0.012ms returns TRUE
T00CC 91564:792.100 JLINK_IsHalted()
T00CC 91564:792.108 - 0.012ms returns TRUE
T00CC 91564:792.118 JLINK_IsHalted()
T00CC 91564:792.126 - 0.012ms returns TRUE
T00CC 91564:792.138 JLINK_ReadReg(R15 (PC))
T00CC 91564:792.149 - 0.015ms returns 0x08000234
T00CC 91564:792.159 JLINK_ReadReg(XPSR)
T00CC 91564:792.168 - 0.013ms returns 0x61000000
T00CC 91564:792.189 JLINK_ClrBPEx(BPHandle = 0x00000001)
T00CC 91564:792.198 - 0.013ms returns 0x00
T00CC 91564:792.211   JLINK_ReadMemU32(0xE000ED30, 0x0001 Items, ...)
T00CC 91564:792.230    -- CPU_ReadMem(4 bytes @ 0xE000ED30)
T00CC 91564:792.611   Data:  03 00 00 00
T00CC 91564:792.631 - 0.424ms returns 1
T00CC 91564:792.643   JLINK_ReadMemU32(0xE0001028, 0x0001 Items, ...)
T00CC 91564:792.660    -- CPU_ReadMem(4 bytes @ 0xE0001028)
T00CC 91564:793.028   Data:  00 00 00 00
T00CC 91564:793.044    - DWT_FUNC[0]
T00CC 91564:793.054 - 0.414ms returns 1
T00CC 91564:793.064   JLINK_ReadMemU32(0xE0001038, 0x0001 Items, ...)
T00CC 91564:793.080    -- CPU_ReadMem(4 bytes @ 0xE0001038)
T00CC 91564:793.428   Data:  00 02 00 00
T00CC 91564:793.442    - DWT_FUNC[1]
T00CC 91564:793.451 - 0.391ms returns 1
T00CC 91564:793.461   JLINK_ReadMemU32(0xE0001048, 0x0001 Items, ...)
T00CC 91564:793.474    -- CPU_ReadMem(4 bytes @ 0xE0001048)
T00CC 91564:793.812   Data:  00 00 00 00
T00CC 91564:793.829    - DWT_FUNC[2]
T00CC 91564:793.839 - 0.383ms returns 1
T00CC 91564:793.851   JLINK_ReadMemU32(0xE0001058, 0x0001 Items, ...)
T00CC 91564:793.868    -- CPU_ReadMem(4 bytes @ 0xE0001058)
T00CC 91564:794.230   Data:  00 00 00 00
T00CC 91564:794.247    - DWT_FUNC[3]
T00CC 91564:794.256 - 0.408ms returns 1
T00CC 91564:794.315 JLINK_ReadReg(R0)
T00CC 91564:794.325 - 0.013ms returns 0x200001E8
T00CC 91564:794.334 JLINK_ReadReg(R1)
T00CC 91564:794.342 - 0.012ms returns 0x200003E8
T00CC 91564:794.351 JLINK_ReadReg(R2)
T00CC 91564:794.359 - 0.012ms returns 0x200003E8
T00CC 91564:794.368 JLINK_ReadReg(R3)
T00CC 91564:794.376 - 0.011ms returns 0x200003E8
T00CC 91564:794.385 JLINK_ReadReg(R4)
T00CC 91564:794.392 - 0.011ms returns 0x00000000
T00CC 91564:794.402 JLINK_ReadReg(R5)
T00CC 91564:794.410 - 0.016ms returns 0x20000188
T00CC 91564:794.427 JLINK_ReadReg(R6)
T00CC 91564:794.436 - 0.013ms returns 0x00000000
T00CC 91564:794.445 JLINK_ReadReg(R7)
T00CC 91564:794.454 - 0.011ms returns 0x00000000
T00CC 91564:794.461 JLINK_ReadReg(R8)
T00CC 91564:794.468 - 0.009ms returns 0x00000000
T00CC 91564:794.475 JLINK_ReadReg(R9)
T00CC 91564:794.481 - 0.009ms returns 0x20000160
T00CC 91564:794.488 JLINK_ReadReg(R10)
T00CC 91564:794.494 - 0.009ms returns 0x0800C8E0
T00CC 91564:794.502 JLINK_ReadReg(R11)
T00CC 91564:794.508 - 0.009ms returns 0x00000000
T00CC 91564:794.515 JLINK_ReadReg(R12)
T00CC 91564:794.523 - 0.011ms returns 0x200001F8
T00CC 91564:794.532 JLINK_ReadReg(R13 (SP))
T00CC 91564:794.540 - 0.012ms returns 0x200007E8
T00CC 91564:794.549 JLINK_ReadReg(R14)
T00CC 91564:794.557 - 0.012ms returns 0x080001C7
T00CC 91564:794.566 JLINK_ReadReg(R15 (PC))
T00CC 91564:794.574 - 0.012ms returns 0x08000234
T00CC 91564:794.583 JLINK_ReadReg(XPSR)
T00CC 91564:794.591 - 0.012ms returns 0x61000000
T00CC 91564:794.601 JLINK_ReadReg(MSP)
T00CC 91564:794.609 - 0.012ms returns 0x200007E8
T00CC 91564:794.617 JLINK_ReadReg(PSP)
T00CC 91564:794.625 - 0.012ms returns 0x20001000
T00CC 91564:794.634 JLINK_ReadReg(CFBP)
T00CC 91564:794.642 - 0.011ms returns 0x00000000
T5468 91564:797.702   JLINK_ReadMemU32(0xE0001004, 0x0001 Items, ...)
T5468 91564:797.741    -- CPU_ReadMem(4 bytes @ 0xE0001004)
T5468 91564:798.137   Data:  E9 1B 00 00
T5468 91564:798.157    - DWT_CYCCNT
T5468 91564:798.169 - 0.472ms returns 1
T5468 91564:798.643   JLINK_ReadMemEx(0x20000068, 0x0004 Bytes, ..., Flags = 0x02000000)
T5468 91564:798.673    -- CPU_ReadMem(64 bytes @ 0x20000040)
T5468 91564:799.500    -- Updating C cache (64 bytes @ 0x20000040)
T5468 91564:799.524    -- Read from C cache (4 bytes @ 0x20000068)
T5468 91564:799.536   Data:  00 00 00 00
T5468 91564:799.548 - 0.910ms returns 0x04
T5468 91564:805.088   JLINK_ReadMemEx(0x08000234, 0x003C Bytes, ..., Flags = 0x02000000)
T5468 91564:805.124    -- CPU_ReadMem(128 bytes @ 0x08000200)
T5468 91564:806.438    -- Updating C cache (128 bytes @ 0x08000200)
T5468 91564:806.465    -- Read from C cache (60 bytes @ 0x08000234)
T5468 91564:806.480   Data:  8C B0 20 22 79 49 03 A8 08 F0 20 FE 00 26 00 27 ...
T5468 91564:806.490 - 1.407ms returns 0x3C
T5468 91564:806.505   JLINK_ReadMemEx(0x08000234, 0x0002 Bytes, ..., Flags = 0x02000000)
T5468 91564:806.520    -- Read from C cache (2 bytes @ 0x08000234)
T5468 91564:806.531   Data:  8C B0
T5468 91564:806.543 - 0.042ms returns 0x02
T5468 91564:806.555   JLINK_ReadMemEx(0x08000236, 0x0002 Bytes, ..., Flags = 0x02000000)
T5468 91564:806.567    -- Read from C cache (2 bytes @ 0x08000236)
T5468 91564:806.577   Data:  20 22
T5468 91564:806.587 - 0.037ms returns 0x02
T00CC 91568:681.335   JLINK_ReadMemEx(0x08000234, 0x0002 Bytes, ..., Flags = 0x02000000)
T00CC 91568:681.375    -- Read from C cache (2 bytes @ 0x08000234)
T00CC 91568:681.383   Data:  8C B0
T00CC 91568:681.392 - 0.060ms returns 0x02
T00CC 91568:681.408 JLINK_Step()
T00CC 91568:681.796    -- Read from C cache (2 bytes @ 0x08000234)
T00CC 91568:681.815    -- CPU_ReadMem(4 bytes @ 0xE000ED18)
T00CC 91568:682.231    -- CPU_WriteMem(4 bytes @ 0xE000ED18)
T00CC 91568:682.730    -- CPU_ReadMem(4 bytes @ 0xE000ED18)
T00CC 91568:683.116    -- CPU_WriteMem(4 bytes @ 0xE000ED18)
T00CC 91568:683.540    -- Simulated
T00CC 91568:683.553 - 2.147ms returns 0x00
T00CC 91568:683.566 JLINK_ReadReg(R15 (PC))
T00CC 91568:683.573 - 0.010ms returns 0x08000236
T00CC 91568:683.580 JLINK_ReadReg(XPSR)
T00CC 91568:683.585 - 0.008ms returns 0x61000000
T00CC 91568:683.635 JLINK_ReadReg(R0)
T00CC 91568:683.642 - 0.009ms returns 0x200001E8
T00CC 91568:683.648 JLINK_ReadReg(R1)
T00CC 91568:683.654 - 0.008ms returns 0x200003E8
T00CC 91568:683.660 JLINK_ReadReg(R2)
T00CC 91568:683.665 - 0.008ms returns 0x200003E8
T00CC 91568:683.671 JLINK_ReadReg(R3)
T00CC 91568:683.676 - 0.008ms returns 0x200003E8
T00CC 91568:683.682 JLINK_ReadReg(R4)
T00CC 91568:683.687 - 0.010ms returns 0x00000000
T00CC 91568:683.699 JLINK_ReadReg(R5)
T00CC 91568:683.704 - 0.008ms returns 0x20000188
T00CC 91568:683.710 JLINK_ReadReg(R6)
T00CC 91568:683.715 - 0.008ms returns 0x00000000
T00CC 91568:683.722 JLINK_ReadReg(R7)
T00CC 91568:683.727 - 0.007ms returns 0x00000000
T00CC 91568:683.733 JLINK_ReadReg(R8)
T00CC 91568:683.738 - 0.007ms returns 0x00000000
T00CC 91568:683.744 JLINK_ReadReg(R9)
T00CC 91568:683.749 - 0.007ms returns 0x20000160
T00CC 91568:683.755 JLINK_ReadReg(R10)
T00CC 91568:683.761 - 0.007ms returns 0x0800C8E0
T00CC 91568:683.767 JLINK_ReadReg(R11)
T00CC 91568:683.772 - 0.007ms returns 0x00000000
T00CC 91568:683.778 JLINK_ReadReg(R12)
T00CC 91568:683.783 - 0.007ms returns 0x200001F8
T00CC 91568:683.789 JLINK_ReadReg(R13 (SP))
T00CC 91568:683.795 - 0.008ms returns 0x200007B8
T00CC 91568:683.801 JLINK_ReadReg(R14)
T00CC 91568:683.806 - 0.007ms returns 0x080001C7
T00CC 91568:683.812 JLINK_ReadReg(R15 (PC))
T00CC 91568:683.817 - 0.008ms returns 0x08000236
T00CC 91568:683.823 JLINK_ReadReg(XPSR)
T00CC 91568:683.828 - 0.008ms returns 0x61000000
T00CC 91568:683.834 JLINK_ReadReg(MSP)
T00CC 91568:683.840 - 0.007ms returns 0x200007B8
T00CC 91568:683.846 JLINK_ReadReg(PSP)
T00CC 91568:683.851 - 0.008ms returns 0x20001000
T00CC 91568:683.857 JLINK_ReadReg(CFBP)
T00CC 91568:683.862 - 0.008ms returns 0x00000000
T5468 91568:684.672   JLINK_ReadMemU32(0xE0001004, 0x0001 Items, ...)
T5468 91568:684.691   Data:  EA 1B 00 00
T5468 91568:684.700    - DWT_CYCCNT
T5468 91568:684.707 - 0.038ms returns 1
T5468 91568:684.787   JLINK_ReadMemEx(0x20000068, 0x0004 Bytes, ..., Flags = 0x02000000)
T5468 91568:684.798    -- Read from C cache (4 bytes @ 0x20000068)
T5468 91568:684.806   Data:  00 00 00 00
T5468 91568:684.814 - 0.030ms returns 0x04
T5468 91568:688.314   JLINK_ReadMemEx(0x08000236, 0x0002 Bytes, ..., Flags = 0x02000000)
T5468 91568:688.340    -- Read from C cache (2 bytes @ 0x08000236)
T5468 91568:688.349   Data:  20 22
T5468 91568:688.357 - 0.046ms returns 0x02
T5468 91568:688.364   JLINK_ReadMemEx(0x08000238, 0x003C Bytes, ..., Flags = 0x02000000)
T5468 91568:688.373    -- Read from C cache (60 bytes @ 0x08000238)
T5468 91568:688.381   Data:  79 49 03 A8 08 F0 20 FE 00 26 00 27 00 BF 00 BF ...
T5468 91568:688.388 - 0.027ms returns 0x3C
T5468 91568:688.395   JLINK_ReadMemEx(0x08000238, 0x0002 Bytes, ..., Flags = 0x02000000)
T5468 91568:688.403    -- Read from C cache (2 bytes @ 0x08000238)
T5468 91568:688.410   Data:  79 49
T5468 91568:688.418 - 0.025ms returns 0x02
T5468 91568:688.429   JLINK_ReadMemEx(0x08000238, 0x003C Bytes, ..., Flags = 0x02000000)
T5468 91568:688.437    -- Read from C cache (60 bytes @ 0x08000238)
T5468 91568:688.445   Data:  79 49 03 A8 08 F0 20 FE 00 26 00 27 00 BF 00 BF ...
T5468 91568:688.452 - 0.027ms returns 0x3C
T5468 91568:688.460   JLINK_ReadMemEx(0x08000238, 0x0002 Bytes, ..., Flags = 0x02000000)
T5468 91568:688.468    -- Read from C cache (2 bytes @ 0x08000238)
T5468 91568:688.475   Data:  79 49
T5468 91568:688.483 - 0.026ms returns 0x02
T5468 91568:688.489   JLINK_ReadMemEx(0x0800023A, 0x0002 Bytes, ..., Flags = 0x02000000)
T5468 91568:688.497    -- Read from C cache (2 bytes @ 0x0800023A)
T5468 91568:688.505   Data:  03 A8
T5468 91568:688.513 - 0.026ms returns 0x02
T5468 91568:688.522   JLINK_ReadMemEx(0x0800023A, 0x0002 Bytes, ..., Flags = 0x02000000)
T5468 91568:688.530    -- Read from C cache (2 bytes @ 0x0800023A)
T5468 91568:688.537   Data:  03 A8
T5468 91568:688.545 - 0.025ms returns 0x02
T5468 91568:688.551   JLINK_ReadMemEx(0x0800023C, 0x003C Bytes, ..., Flags = 0x02000000)
T5468 91568:688.559    -- Read from C cache (60 bytes @ 0x0800023C)
T5468 91568:688.567   Data:  08 F0 20 FE 00 26 00 27 00 BF 00 BF 00 24 00 25 ...
T5468 91568:688.574 - 0.026ms returns 0x3C
T5468 91568:688.580   JLINK_ReadMemEx(0x0800023C, 0x0002 Bytes, ..., Flags = 0x02000000)
T5468 91568:688.588    -- Read from C cache (2 bytes @ 0x0800023C)
T5468 91568:688.595   Data:  08 F0
T5468 91568:688.603 - 0.025ms returns 0x02
T00CC 91569:377.895   JLINK_ReadMemEx(0x08000236, 0x0002 Bytes, ..., Flags = 0x02000000)
T00CC 91569:377.926    -- Read from C cache (2 bytes @ 0x08000236)
T00CC 91569:377.934   Data:  20 22
T00CC 91569:377.942 - 0.050ms returns 0x02
T00CC 91569:377.953 JLINK_Step()
T00CC 91569:378.319    -- Read from C cache (2 bytes @ 0x08000236)
T00CC 91569:378.340    -- Simulated
T00CC 91569:378.347 - 0.397ms returns 0x00
T00CC 91569:378.359 JLINK_ReadReg(R15 (PC))
T00CC 91569:378.365 - 0.009ms returns 0x08000238
T00CC 91569:378.371 JLINK_ReadReg(XPSR)
T00CC 91569:378.377 - 0.008ms returns 0x21000000
T00CC 91569:378.390 JLINK_Step()
T00CC 91569:378.397    -- Read from C cache (2 bytes @ 0x08000238)
T00CC 91569:378.409    -- CPU_ReadMem(64 bytes @ 0x08000400)
T00CC 91569:379.268    -- Updating C cache (64 bytes @ 0x08000400)
T00CC 91569:379.283    -- Read from C cache (4 bytes @ 0x08000420)
T00CC 91569:379.293    -- Simulated
T00CC 91569:379.300 - 0.912ms returns 0x00
T00CC 91569:379.311 JLINK_ReadReg(R15 (PC))
T00CC 91569:379.317 - 0.009ms returns 0x0800023A
T00CC 91569:379.324 JLINK_ReadReg(XPSR)
T00CC 91569:379.329 - 0.008ms returns 0x21000000
T00CC 91569:379.341 JLINK_Step()
T00CC 91569:379.348    -- Read from C cache (2 bytes @ 0x0800023A)
T00CC 91569:379.357    -- Simulated
T00CC 91569:379.364 - 0.026ms returns 0x00
T00CC 91569:379.371 JLINK_ReadReg(R15 (PC))
T00CC 91569:379.377 - 0.008ms returns 0x0800023C
T00CC 91569:379.383 JLINK_ReadReg(XPSR)
T00CC 91569:379.388 - 0.008ms returns 0x21000000
T00CC 91569:379.397   JLINK_ReadMemEx(0x0800023C, 0x003C Bytes, ..., Flags = 0x02000000)
T00CC 91569:379.405    -- Read from C cache (60 bytes @ 0x0800023C)
T00CC 91569:379.413   Data:  08 F0 20 FE 00 26 00 27 00 BF 00 BF 00 24 00 25 ...
T00CC 91569:379.421 - 0.027ms returns 0x3C
T00CC 91569:379.427   JLINK_ReadMemEx(0x0800023C, 0x0002 Bytes, ..., Flags = 0x02000000)
T00CC 91569:379.435    -- Read from C cache (2 bytes @ 0x0800023C)
T00CC 91569:379.442   Data:  08 F0
T00CC 91569:379.450 - 0.038ms returns 0x02
T00CC 91569:379.471   JLINK_ReadMemEx(0x0800023E, 0x0002 Bytes, ..., Flags = 0x02000000)
T00CC 91569:379.481    -- Read from C cache (2 bytes @ 0x0800023E)
T00CC 91569:379.491   Data:  20 FE
T00CC 91569:379.498 - 0.030ms returns 0x02
T00CC 91569:379.508   JLINK_SetBPEx(Addr = 0x08000240, Type = 0xFFFFFFF2)
T00CC 91569:379.517 - 0.012ms returns 0x00000002
T00CC 91569:379.525 JLINK_Go()
T00CC 91569:379.534    -- CPU_WriteMem(4 bytes @ 0xE0002000)
T00CC 91569:379.928    -- CPU_ReadMem(4 bytes @ 0xE0001000)
T00CC 91569:380.255    -- CPU_WriteMem(4 bytes @ 0xE0002008)
T00CC 91569:380.644    -- CPU_WriteMem(4 bytes @ 0xE0001004)
T00CC 91569:382.321 - 2.813ms
T00CC 91569:482.668 JLINK_IsHalted()
T00CC 91569:485.704 - 3.055ms returns TRUE
T00CC 91569:485.733 JLINK_Halt()
T00CC 91569:485.740 - 0.009ms returns 0x00
T00CC 91569:485.747 JLINK_IsHalted()
T00CC 91569:485.752 - 0.008ms returns TRUE
T00CC 91569:485.759 JLINK_IsHalted()
T00CC 91569:485.764 - 0.007ms returns TRUE
T00CC 91569:485.770 JLINK_IsHalted()
T00CC 91569:485.775 - 0.007ms returns TRUE
T00CC 91569:485.783 JLINK_ReadReg(R15 (PC))
T00CC 91569:485.790 - 0.010ms returns 0x08000240
T00CC 91569:485.797 JLINK_ReadReg(XPSR)
T00CC 91569:485.803 - 0.008ms returns 0x41000000
T00CC 91569:485.815 JLINK_ClrBPEx(BPHandle = 0x00000002)
T00CC 91569:485.821 - 0.009ms returns 0x00
T00CC 91569:485.831   JLINK_ReadMemU32(0xE000ED30, 0x0001 Items, ...)
T00CC 91569:485.843    -- CPU_ReadMem(4 bytes @ 0xE000ED30)
T00CC 91569:486.244   Data:  03 00 00 00
T00CC 91569:486.268 - 0.441ms returns 1
T00CC 91569:486.283   JLINK_ReadMemU32(0xE0001028, 0x0001 Items, ...)
T00CC 91569:486.299    -- CPU_ReadMem(4 bytes @ 0xE0001028)
T00CC 91569:487.198   Data:  00 00 00 00
T00CC 91569:487.230    - DWT_FUNC[0]
T00CC 91569:487.239 - 0.959ms returns 1
T00CC 91569:487.254   JLINK_ReadMemU32(0xE0001038, 0x0001 Items, ...)
T00CC 91569:487.279    -- CPU_ReadMem(4 bytes @ 0xE0001038)
T00CC 91569:487.726   Data:  00 02 00 00
T00CC 91569:487.754    - DWT_FUNC[1]
T00CC 91569:487.838 - 0.587ms returns 1
T00CC 91569:487.857   JLINK_ReadMemU32(0xE0001048, 0x0001 Items, ...)
T00CC 91569:487.879    -- CPU_ReadMem(4 bytes @ 0xE0001048)
T00CC 91569:488.291   Data:  00 00 00 00
T00CC 91569:488.309    - DWT_FUNC[2]
T00CC 91569:488.316 - 0.462ms returns 1
T00CC 91569:488.328   JLINK_ReadMemU32(0xE0001058, 0x0001 Items, ...)
T00CC 91569:488.342    -- CPU_ReadMem(4 bytes @ 0xE0001058)
T00CC 91569:488.716   Data:  00 00 00 00
T00CC 91569:488.729    - DWT_FUNC[3]
T00CC 91569:488.737 - 0.412ms returns 1
T00CC 91569:488.794 JLINK_ReadReg(R0)
T00CC 91569:488.802 - 0.011ms returns 0x200007E4
T00CC 91569:488.809 JLINK_ReadReg(R1)
T00CC 91569:488.814 - 0.008ms returns 0x08009CF0
T00CC 91569:488.821 JLINK_ReadReg(R2)
T00CC 91569:488.826 - 0.008ms returns 0xFFFFFFE0
T00CC 91569:488.832 JLINK_ReadReg(R3)
T00CC 91569:488.837 - 0.007ms returns 0x00D70019
T00CC 91569:488.843 JLINK_ReadReg(R4)
T00CC 91569:488.848 - 0.008ms returns 0x00000000
T00CC 91569:488.855 JLINK_ReadReg(R5)
T00CC 91569:488.860 - 0.008ms returns 0x20000188
T00CC 91569:488.866 JLINK_ReadReg(R6)
T00CC 91569:488.871 - 0.008ms returns 0x00000000
T00CC 91569:488.877 JLINK_ReadReg(R7)
T00CC 91569:488.883 - 0.008ms returns 0x00000000
T00CC 91569:488.889 JLINK_ReadReg(R8)
T00CC 91569:488.894 - 0.007ms returns 0x00000000
T00CC 91569:488.900 JLINK_ReadReg(R9)
T00CC 91569:488.905 - 0.007ms returns 0x20000160
T00CC 91569:488.911 JLINK_ReadReg(R10)
T00CC 91569:488.916 - 0.007ms returns 0x0800C8E0
T00CC 91569:488.922 JLINK_ReadReg(R11)
T00CC 91569:488.928 - 0.007ms returns 0x00000000
T00CC 91569:488.934 JLINK_ReadReg(R12)
T00CC 91569:488.939 - 0.007ms returns 0x00000000
T00CC 91569:488.945 JLINK_ReadReg(R13 (SP))
T00CC 91569:488.950 - 0.008ms returns 0x200007B8
T00CC 91569:488.956 JLINK_ReadReg(R14)
T00CC 91569:488.962 - 0.008ms returns 0x08000241
T00CC 91569:488.968 JLINK_ReadReg(R15 (PC))
T00CC 91569:488.973 - 0.007ms returns 0x08000240
T00CC 91569:488.979 JLINK_ReadReg(XPSR)
T00CC 91569:488.984 - 0.008ms returns 0x41000000
T00CC 91569:488.991 JLINK_ReadReg(MSP)
T00CC 91569:488.996 - 0.007ms returns 0x200007B8
T00CC 91569:489.002 JLINK_ReadReg(PSP)
T00CC 91569:489.007 - 0.007ms returns 0x20001000
T00CC 91569:489.013 JLINK_ReadReg(CFBP)
T00CC 91569:489.018 - 0.007ms returns 0x00000000
T5468 91569:489.296   JLINK_ReadMemU32(0xE0001004, 0x0001 Items, ...)
T5468 91569:489.310    -- CPU_ReadMem(4 bytes @ 0xE0001004)
T5468 91569:489.706   Data:  41 1C 00 00
T5468 91569:489.719    - DWT_CYCCNT
T5468 91569:489.727 - 0.434ms returns 1
T5468 91569:489.810   JLINK_ReadMemEx(0x20000068, 0x0004 Bytes, ..., Flags = 0x02000000)
T5468 91569:489.823    -- CPU_ReadMem(64 bytes @ 0x20000040)
T5468 91569:490.646    -- Updating C cache (64 bytes @ 0x20000040)
T5468 91569:490.662    -- Read from C cache (4 bytes @ 0x20000068)
T5468 91569:490.671   Data:  00 00 00 00
T5468 91569:490.678 - 0.872ms returns 0x04
T5468 91569:493.846   JLINK_ReadMemEx(0x08000240, 0x003C Bytes, ..., Flags = 0x02000000)
T5468 91569:493.875    -- CPU_ReadMem(64 bytes @ 0x08000240)
T5468 91569:495.042    -- Updating C cache (64 bytes @ 0x08000240)
T5468 91569:495.071    -- Read from C cache (60 bytes @ 0x08000240)
T5468 91569:495.081   Data:  00 26 00 27 00 BF 00 BF 00 24 00 25 FF F7 DE FF ...
T5468 91569:495.089 - 1.247ms returns 0x3C
T5468 91569:495.102   JLINK_ReadMemEx(0x08000240, 0x0002 Bytes, ..., Flags = 0x02000000)
T5468 91569:495.111    -- Read from C cache (2 bytes @ 0x08000240)
T5468 91569:495.119   Data:  00 26
T5468 91569:495.127 - 0.029ms returns 0x02
T5468 91569:495.136   JLINK_ReadMemEx(0x08000242, 0x0002 Bytes, ..., Flags = 0x02000000)
T5468 91569:495.162    -- Read from C cache (2 bytes @ 0x08000242)
T5468 91569:495.174   Data:  00 27
T5468 91569:495.185 - 0.054ms returns 0x02
T5468 91569:495.215   JLINK_ReadMemEx(0x08000242, 0x0002 Bytes, ..., Flags = 0x02000000)
T5468 91569:495.233    -- Read from C cache (2 bytes @ 0x08000242)
T5468 91569:495.242   Data:  00 27
T5468 91569:495.250 - 0.042ms returns 0x02
T5468 91569:495.264   JLINK_ReadMemEx(0x08000244, 0x003C Bytes, ..., Flags = 0x02000000)
T5468 91569:495.274    -- Read from C cache (60 bytes @ 0x08000244)
T5468 91569:495.282   Data:  00 BF 00 BF 00 24 00 25 FF F7 DE FF 07 F0 44 FA ...
T5468 91569:495.289 - 0.027ms returns 0x3C
T5468 91569:495.296   JLINK_ReadMemEx(0x08000244, 0x0002 Bytes, ..., Flags = 0x02000000)
T5468 91569:495.303    -- Read from C cache (2 bytes @ 0x08000244)
T5468 91569:495.311   Data:  00 BF
T5468 91569:495.319 - 0.026ms returns 0x02
T5468 91569:495.330   JLINK_ReadMemEx(0x08000244, 0x003C Bytes, ..., Flags = 0x02000000)
T5468 91569:495.339    -- Read from C cache (60 bytes @ 0x08000244)
T5468 91569:495.347   Data:  00 BF 00 BF 00 24 00 25 FF F7 DE FF 07 F0 44 FA ...
T5468 91569:495.355 - 0.027ms returns 0x3C
T5468 91569:495.361   JLINK_ReadMemEx(0x08000244, 0x0002 Bytes, ..., Flags = 0x02000000)
T5468 91569:495.369    -- Read from C cache (2 bytes @ 0x08000244)
T5468 91569:495.376   Data:  00 BF
T5468 91569:495.384 - 0.025ms returns 0x02
T5468 91569:495.390   JLINK_ReadMemEx(0x08000246, 0x0002 Bytes, ..., Flags = 0x02000000)
T5468 91569:495.398    -- Read from C cache (2 bytes @ 0x08000246)
T5468 91569:495.405   Data:  00 BF
T5468 91569:495.413 - 0.025ms returns 0x02
T00CC 91571:129.947   JLINK_ReadMemEx(0x08000240, 0x0002 Bytes, ..., Flags = 0x02000000)
T00CC 91571:129.978    -- Read from C cache (2 bytes @ 0x08000240)
T00CC 91571:129.986   Data:  00 26
T00CC 91571:129.994 - 0.049ms returns 0x02
T00CC 91571:130.004 JLINK_Step()
T00CC 91571:130.386    -- Read from C cache (2 bytes @ 0x08000240)
T00CC 91571:130.403    -- Simulated
T00CC 91571:130.411 - 0.409ms returns 0x00
T00CC 91571:130.422 JLINK_ReadReg(R15 (PC))
T00CC 91571:130.428 - 0.009ms returns 0x08000242
T00CC 91571:130.434 JLINK_ReadReg(XPSR)
T00CC 91571:130.440 - 0.008ms returns 0x41000000
T00CC 91571:130.453 JLINK_Step()
T00CC 91571:130.460    -- Read from C cache (2 bytes @ 0x08000242)
T00CC 91571:130.468    -- Simulated
T00CC 91571:130.475 - 0.024ms returns 0x00
T00CC 91571:130.482 JLINK_ReadReg(R15 (PC))
T00CC 91571:130.488 - 0.008ms returns 0x08000244
T00CC 91571:130.494 JLINK_ReadReg(XPSR)
T00CC 91571:130.499 - 0.008ms returns 0x41000000
T00CC 91571:130.543 JLINK_ReadReg(R0)
T00CC 91571:130.549 - 0.009ms returns 0x200007E4
T00CC 91571:130.556 JLINK_ReadReg(R1)
T00CC 91571:130.561 - 0.008ms returns 0x08009CF0
T00CC 91571:130.567 JLINK_ReadReg(R2)
T00CC 91571:130.572 - 0.007ms returns 0xFFFFFFE0
T00CC 91571:130.578 JLINK_ReadReg(R3)
T00CC 91571:130.584 - 0.007ms returns 0x00D70019
T00CC 91571:130.590 JLINK_ReadReg(R4)
T00CC 91571:130.595 - 0.007ms returns 0x00000000
T00CC 91571:130.601 JLINK_ReadReg(R5)
T00CC 91571:130.606 - 0.007ms returns 0x20000188
T00CC 91571:130.612 JLINK_ReadReg(R6)
T00CC 91571:130.618 - 0.008ms returns 0x00000000
T00CC 91571:130.624 JLINK_ReadReg(R7)
T00CC 91571:130.629 - 0.007ms returns 0x00000000
T00CC 91571:130.635 JLINK_ReadReg(R8)
T00CC 91571:130.640 - 0.008ms returns 0x00000000
T00CC 91571:130.646 JLINK_ReadReg(R9)
T00CC 91571:130.652 - 0.007ms returns 0x20000160
T00CC 91571:130.658 JLINK_ReadReg(R10)
T00CC 91571:130.663 - 0.008ms returns 0x0800C8E0
T00CC 91571:130.669 JLINK_ReadReg(R11)
T00CC 91571:130.674 - 0.007ms returns 0x00000000
T00CC 91571:130.680 JLINK_ReadReg(R12)
T00CC 91571:130.685 - 0.008ms returns 0x00000000
T00CC 91571:130.691 JLINK_ReadReg(R13 (SP))
T00CC 91571:130.697 - 0.008ms returns 0x200007B8
T00CC 91571:130.703 JLINK_ReadReg(R14)
T00CC 91571:130.708 - 0.008ms returns 0x08000241
T00CC 91571:130.714 JLINK_ReadReg(R15 (PC))
T00CC 91571:130.720 - 0.008ms returns 0x08000244
T00CC 91571:130.726 JLINK_ReadReg(XPSR)
T00CC 91571:130.735 - 0.013ms returns 0x41000000
T00CC 91571:130.744 JLINK_ReadReg(MSP)
T00CC 91571:130.751 - 0.010ms returns 0x200007B8
T00CC 91571:130.759 JLINK_ReadReg(PSP)
T00CC 91571:130.766 - 0.024ms returns 0x20001000
T00CC 91571:130.788 JLINK_ReadReg(CFBP)
T00CC 91571:130.796 - 0.012ms returns 0x00000000
T5468 91571:131.139   JLINK_ReadMemU32(0xE0001004, 0x0001 Items, ...)
T5468 91571:131.158   Data:  43 1C 00 00
T5468 91571:131.166    - DWT_CYCCNT
T5468 91571:131.173 - 0.037ms returns 1
T5468 91571:131.243   JLINK_ReadMemEx(0x20000068, 0x0004 Bytes, ..., Flags = 0x02000000)
T5468 91571:131.253    -- Read from C cache (4 bytes @ 0x20000068)
T5468 91571:131.261   Data:  00 00 00 00
T5468 91571:131.269 - 0.029ms returns 0x04
T5468 91571:136.540   JLINK_ReadMemEx(0x08000244, 0x003C Bytes, ..., Flags = 0x02000000)
T5468 91571:136.568    -- Read from C cache (60 bytes @ 0x08000244)
T5468 91571:136.578   Data:  00 BF 00 BF 00 24 00 25 FF F7 DE FF 07 F0 44 FA ...
T5468 91571:136.585 - 0.048ms returns 0x3C
T5468 91571:136.593   JLINK_ReadMemEx(0x08000244, 0x0002 Bytes, ..., Flags = 0x02000000)
T5468 91571:136.601    -- Read from C cache (2 bytes @ 0x08000244)
T5468 91571:136.608   Data:  00 BF
T5468 91571:136.616 - 0.026ms returns 0x02
T5468 91571:136.623   JLINK_ReadMemEx(0x08000246, 0x0002 Bytes, ..., Flags = 0x02000000)
T5468 91571:136.631    -- Read from C cache (2 bytes @ 0x08000246)
T5468 91571:136.638   Data:  00 BF
T5468 91571:136.645 - 0.025ms returns 0x02
T5468 91571:136.655   JLINK_ReadMemEx(0x08000246, 0x0002 Bytes, ..., Flags = 0x02000000)
T5468 91571:136.663    -- Read from C cache (2 bytes @ 0x08000246)
T5468 91571:136.672   Data:  00 BF
T5468 91571:136.679 - 0.026ms returns 0x02
T5468 91571:136.686   JLINK_ReadMemEx(0x08000248, 0x003C Bytes, ..., Flags = 0x02000000)
T5468 91571:136.698    -- CPU_ReadMem(64 bytes @ 0x08000280)
T5468 91571:137.878    -- Updating C cache (64 bytes @ 0x08000280)
T5468 91571:137.914    -- Read from C cache (60 bytes @ 0x08000248)
T5468 91571:137.925   Data:  00 24 00 25 FF F7 DE FF 07 F0 44 FA 01 F0 4F FD ...
T5468 91571:137.932 - 1.249ms returns 0x3C
T5468 91571:137.944   JLINK_ReadMemEx(0x08000248, 0x0002 Bytes, ..., Flags = 0x02000000)
T5468 91571:137.954    -- Read from C cache (2 bytes @ 0x08000248)
T5468 91571:137.962   Data:  00 24
T5468 91571:137.969 - 0.028ms returns 0x02
T5468 91571:137.990   JLINK_ReadMemEx(0x08000248, 0x003C Bytes, ..., Flags = 0x02000000)
T5468 91571:138.010    -- Read from C cache (60 bytes @ 0x08000248)
T5468 91571:138.019   Data:  00 24 00 25 FF F7 DE FF 07 F0 44 FA 01 F0 4F FD ...
T5468 91571:138.026 - 0.039ms returns 0x3C
T5468 91571:138.033   JLINK_ReadMemEx(0x08000248, 0x0002 Bytes, ..., Flags = 0x02000000)
T5468 91571:138.041    -- Read from C cache (2 bytes @ 0x08000248)
T5468 91571:138.049   Data:  00 24
T5468 91571:138.056 - 0.026ms returns 0x02
T5468 91571:138.063   JLINK_ReadMemEx(0x0800024A, 0x0002 Bytes, ..., Flags = 0x02000000)
T5468 91571:138.071    -- Read from C cache (2 bytes @ 0x0800024A)
T5468 91571:138.078   Data:  00 25
T5468 91571:138.086 - 0.025ms returns 0x02
T403C 91572:056.529 Looking for J-Link GUI Server exe at: d:\Keil_v5\ARM\Segger\JLinkGUIServer.exe
T403C 91572:056.652 Looking for J-Link GUI Server exe at: C:\Program Files (x86)\SEGGER\JLink\JLinkGUIServer.exe
T403C 91572:056.738 Forking J-Link GUI Server: C:\Program Files (x86)\SEGGER\JLink\JLinkGUIServer.exe
T00CC 91576:249.780   JLINK_ReadMemEx(0x08000244, 0x0002 Bytes, ..., Flags = 0x02000000)
T00CC 91576:249.807    -- Read from C cache (2 bytes @ 0x08000244)
T00CC 91576:249.815   Data:  00 BF
T00CC 91576:249.823 - 0.047ms returns 0x02
T00CC 91576:249.835 JLINK_Step()
T00CC 91576:250.317    -- Read from C cache (2 bytes @ 0x08000244)
T00CC 91576:250.334    -- Simulated
T00CC 91576:250.342 - 0.510ms returns 0x00
T00CC 91576:250.353 JLINK_ReadReg(R15 (PC))
T00CC 91576:250.359 - 0.009ms returns 0x08000246
T00CC 91576:250.366 JLINK_ReadReg(XPSR)
T00CC 91576:250.371 - 0.008ms returns 0x41000000
T00CC 91576:250.420 JLINK_ReadReg(R0)
T00CC 91576:250.426 - 0.009ms returns 0x200007E4
T00CC 91576:250.432 JLINK_ReadReg(R1)
T00CC 91576:250.438 - 0.008ms returns 0x08009CF0
T00CC 91576:250.444 JLINK_ReadReg(R2)
T00CC 91576:250.449 - 0.008ms returns 0xFFFFFFE0
T00CC 91576:250.455 JLINK_ReadReg(R3)
T00CC 91576:250.460 - 0.010ms returns 0x00D70019
T00CC 91576:250.472 JLINK_ReadReg(R4)
T00CC 91576:250.477 - 0.008ms returns 0x00000000
T00CC 91576:250.483 JLINK_ReadReg(R5)
T00CC 91576:250.489 - 0.008ms returns 0x20000188
T00CC 91576:250.495 JLINK_ReadReg(R6)
T00CC 91576:250.500 - 0.008ms returns 0x00000000
T00CC 91576:250.506 JLINK_ReadReg(R7)
T00CC 91576:250.511 - 0.008ms returns 0x00000000
T00CC 91576:250.517 JLINK_ReadReg(R8)
T00CC 91576:250.523 - 0.008ms returns 0x00000000
T00CC 91576:250.529 JLINK_ReadReg(R9)
T00CC 91576:250.534 - 0.008ms returns 0x20000160
T00CC 91576:250.540 JLINK_ReadReg(R10)
T00CC 91576:250.545 - 0.007ms returns 0x0800C8E0
T00CC 91576:250.551 JLINK_ReadReg(R11)
T00CC 91576:250.557 - 0.007ms returns 0x00000000
T00CC 91576:250.563 JLINK_ReadReg(R12)
T00CC 91576:250.568 - 0.007ms returns 0x00000000
T00CC 91576:250.574 JLINK_ReadReg(R13 (SP))
T00CC 91576:250.580 - 0.008ms returns 0x200007B8
T00CC 91576:250.586 JLINK_ReadReg(R14)
T00CC 91576:250.591 - 0.007ms returns 0x08000241
T00CC 91576:250.597 JLINK_ReadReg(R15 (PC))
T00CC 91576:250.602 - 0.008ms returns 0x08000246
T00CC 91576:250.608 JLINK_ReadReg(XPSR)
T00CC 91576:250.614 - 0.007ms returns 0x41000000
T00CC 91576:250.620 JLINK_ReadReg(MSP)
T00CC 91576:250.625 - 0.007ms returns 0x200007B8
T00CC 91576:250.631 JLINK_ReadReg(PSP)
T00CC 91576:250.636 - 0.007ms returns 0x20001000
T00CC 91576:250.642 JLINK_ReadReg(CFBP)
T00CC 91576:250.648 - 0.007ms returns 0x00000000
T5468 91576:252.702   JLINK_ReadMemU32(0xE0001004, 0x0001 Items, ...)
T5468 91576:252.731   Data:  44 1C 00 00
T5468 91576:252.740    - DWT_CYCCNT
T5468 91576:252.747 - 0.049ms returns 1
T5468 91576:252.807   JLINK_ReadMemEx(0x20000068, 0x0004 Bytes, ..., Flags = 0x02000000)
T5468 91576:252.819    -- Read from C cache (4 bytes @ 0x20000068)
T5468 91576:252.826   Data:  00 00 00 00
T5468 91576:252.834 - 0.031ms returns 0x04
T5468 91576:256.847   JLINK_ReadMemEx(0x08000244, 0x003C Bytes, ..., Flags = 0x02000000)
T5468 91576:256.873    -- Read from C cache (60 bytes @ 0x08000244)
T5468 91576:256.882   Data:  00 BF 00 BF 00 24 00 25 FF F7 DE FF 07 F0 44 FA ...
T5468 91576:256.890 - 0.046ms returns 0x3C
T5468 91576:256.897   JLINK_ReadMemEx(0x08000244, 0x0002 Bytes, ..., Flags = 0x02000000)
T5468 91576:256.905    -- Read from C cache (2 bytes @ 0x08000244)
T5468 91576:256.912   Data:  00 BF
T5468 91576:256.920 - 0.026ms returns 0x02
T5468 91576:256.927   JLINK_ReadMemEx(0x08000246, 0x0002 Bytes, ..., Flags = 0x02000000)
T5468 91576:256.935    -- Read from C cache (2 bytes @ 0x08000246)
T5468 91576:256.942   Data:  00 BF
T5468 91576:256.950 - 0.025ms returns 0x02
T5468 91576:256.960   JLINK_ReadMemEx(0x08000246, 0x0002 Bytes, ..., Flags = 0x02000000)
T5468 91576:256.968    -- Read from C cache (2 bytes @ 0x08000246)
T5468 91576:256.975   Data:  00 BF
T5468 91576:256.982 - 0.025ms returns 0x02
T5468 91576:256.989   JLINK_ReadMemEx(0x08000248, 0x003C Bytes, ..., Flags = 0x02000000)
T5468 91576:256.997    -- Read from C cache (60 bytes @ 0x08000248)
T5468 91576:257.004   Data:  00 24 00 25 FF F7 DE FF 07 F0 44 FA 01 F0 4F FD ...
T5468 91576:257.013 - 0.027ms returns 0x3C
T5468 91576:257.019   JLINK_ReadMemEx(0x08000248, 0x0002 Bytes, ..., Flags = 0x02000000)
T5468 91576:257.027    -- Read from C cache (2 bytes @ 0x08000248)
T5468 91576:257.034   Data:  00 24
T5468 91576:257.042 - 0.025ms returns 0x02
T5468 91576:257.051   JLINK_ReadMemEx(0x08000248, 0x003C Bytes, ..., Flags = 0x02000000)
T5468 91576:257.059    -- Read from C cache (60 bytes @ 0x08000248)
T5468 91576:257.071   Data:  00 24 00 25 FF F7 DE FF 07 F0 44 FA 01 F0 4F FD ...
T5468 91576:257.138 - 0.091ms returns 0x3C
T5468 91576:257.149   JLINK_ReadMemEx(0x08000248, 0x0002 Bytes, ..., Flags = 0x02000000)
T5468 91576:257.163    -- Read from C cache (2 bytes @ 0x08000248)
T5468 91576:257.175   Data:  00 24
T5468 91576:257.186 - 0.041ms returns 0x02
T5468 91576:257.196   JLINK_ReadMemEx(0x0800024A, 0x0002 Bytes, ..., Flags = 0x02000000)
T5468 91576:257.207    -- Read from C cache (2 bytes @ 0x0800024A)
T5468 91576:257.225   Data:  00 25
T5468 91576:257.235 - 0.043ms returns 0x02
T00CC 91576:904.734   JLINK_ReadMemEx(0x08000246, 0x0002 Bytes, ..., Flags = 0x02000000)
T00CC 91576:904.758    -- Read from C cache (2 bytes @ 0x08000246)
T00CC 91576:904.766   Data:  00 BF
T00CC 91576:904.774 - 0.043ms returns 0x02
T00CC 91576:904.785 JLINK_Step()
T00CC 91576:905.254    -- Read from C cache (2 bytes @ 0x08000246)
T00CC 91576:905.271    -- Simulated
T00CC 91576:905.279 - 0.496ms returns 0x00
T00CC 91576:905.289 JLINK_ReadReg(R15 (PC))
T00CC 91576:905.296 - 0.009ms returns 0x08000248
T00CC 91576:905.302 JLINK_ReadReg(XPSR)
T00CC 91576:905.308 - 0.008ms returns 0x41000000
T00CC 91576:905.372 JLINK_ReadReg(R0)
T00CC 91576:905.381 - 0.012ms returns 0x200007E4
T00CC 91576:905.388 JLINK_ReadReg(R1)
T00CC 91576:905.393 - 0.008ms returns 0x08009CF0
T00CC 91576:905.399 JLINK_ReadReg(R2)
T00CC 91576:905.405 - 0.007ms returns 0xFFFFFFE0
T00CC 91576:905.411 JLINK_ReadReg(R3)
T00CC 91576:905.416 - 0.007ms returns 0x00D70019
T00CC 91576:905.422 JLINK_ReadReg(R4)
T00CC 91576:905.427 - 0.007ms returns 0x00000000
T00CC 91576:905.433 JLINK_ReadReg(R5)
T00CC 91576:905.439 - 0.008ms returns 0x20000188
T00CC 91576:905.447 JLINK_ReadReg(R6)
T00CC 91576:905.456 - 0.012ms returns 0x00000000
T00CC 91576:905.462 JLINK_ReadReg(R7)
T00CC 91576:905.468 - 0.008ms returns 0x00000000
T00CC 91576:905.474 JLINK_ReadReg(R8)
T00CC 91576:905.480 - 0.008ms returns 0x00000000
T00CC 91576:905.486 JLINK_ReadReg(R9)
T00CC 91576:905.491 - 0.007ms returns 0x20000160
T00CC 91576:905.497 JLINK_ReadReg(R10)
T00CC 91576:905.502 - 0.007ms returns 0x0800C8E0
T00CC 91576:905.508 JLINK_ReadReg(R11)
T00CC 91576:905.513 - 0.008ms returns 0x00000000
